SourceType: COM
	Source: Address=Serial0 Speed=Unknown
		Line: Direction=Request Address=FE Command="46:Read EEPROM" CRC=CA6C
			RawFrame: FE 46 00 3B 01 CA 6C
			RawData: 00 3B 01
		Line: Direction=Response Error="Timeout"
		Line: Direction=Request Address=FE Command="46:Read EEPROM" CRC=CA6C
			RawFrame: FE 46 00 3B 01 CA 6C
			RawData: 00 3B 01
		Line: Direction=Response Error="Timeout"

	Source: Address=Serial3 Speed=Unknown
		Line: Direction=Request Address=68 Command="46:Read EEPROM" CRC=AE20
			RawFrame: 68 46 01 6A 02 AE 20
			RawData: 01 6A 02
		Line: Direction=Response Address=68 Command="46:Read EEPROM" CRC=71BC
			RawFrame: 68 46 02 03 12 71 BC
			RawData: 02 03 12
		Line: Direction=Request Address=68 Command="04:Read Input Registers" CRC=F93A
			RawFrame: 68 04 00 10 00 10 F9 3A
			RawData: 00 10 00 10
		Line: Direction=Response Address=68 Command="04:Read Input Registers" CRC=1399
			RawFrame: 68 04 20 00 00 00 00 00 00 00 00 00 04 00 2E 00 2C 00 00 01 02 00 72 00 32 00 19 00 17 00 16 00 00 00 15 13 99
			RawData: 20 00 00 00 00 00 00 00 00 00 04 00 2E 00 2C 00 00 01 02 00 72 00 32 00 19 00 17 00 16 00 00 00 15
		Line: Direction=Request Address=68 Command="04:Read Input Registers" CRC=78FD
			RawFrame: 68 04 00 30 00 02 78 FD
			RawData: 00 30 00 02
		Line: Direction=Response Error="Timeout"
		Line: Direction=Request Address=68 Command="46:Read EEPROM" CRC=514D
			RawFrame: 68 46 00 00 10 51 4D
			RawData: 00 00 10
		Line: Direction=Response Error="Timeout"
		Line: Direction=Request Address=68 Command="46:Read EEPROM" CRC=5C8D
			RawFrame: 68 46 00 10 10 5C 8D
			RawData: 00 10 10
		Line: Direction=Response Error="Timeout"
		Line: Direction=Request Address=68 Command="46:Read EEPROM" CRC=488D
			RawFrame: 68 46 00 20 10 48 8D
			RawData: 00 20 10
		Line: Direction=Response Error="Timeout"
		Line: Direction=Request Address=68 Command="46:Read EEPROM" CRC=454D
			RawFrame: 68 46 00 30 10 45 4D
			RawData: 00 30 10
		Line: Direction=Response Error="Timeout"
		Line: Direction=Request Address=68 Command="46:Read EEPROM" CRC=608D
			RawFrame: 68 46 00 40 10 60 8D
			RawData: 00 40 10
		Line: Direction=Response Error="Timeout"
		Line: Direction=Request Address=68 Command="46:Read EEPROM" CRC=6D4D
			RawFrame: 68 46 00 50 10 6D 4D
			RawData: 00 50 10
		Line: Direction=Response Error="Timeout"
		Line: Direction=Request Address=68 Command="46:Read EEPROM" CRC=794D
			RawFrame: 68 46 00 60 10 79 4D
			RawData: 00 60 10
		Line: Direction=Response Error="Timeout"
		Line: Direction=Request Address=68 Command="46:Read EEPROM" CRC=748D
			RawFrame: 68 46 00 70 10 74 8D
			RawData: 00 70 10
		Line: Direction=Response Error="Timeout"
		Line: Direction=Request Address=68 Command="46:Read EEPROM" CRC=308D
			RawFrame: 68 46 00 80 10 30 8D
			RawData: 00 80 10
		Line: Direction=Response Error="Timeout"
		Line: Direction=Request Address=68 Command="46:Read EEPROM" CRC=3D4D
			RawFrame: 68 46 00 90 10 3D 4D
			RawData: 00 90 10
		Line: Direction=Response Error="Timeout"
		Line: Direction=Request Address=68 Command="46:Read EEPROM" CRC=294D
			RawFrame: 68 46 00 A0 10 29 4D
			RawData: 00 A0 10
		Line: Direction=Response Error="Timeout"
		Line: Direction=Request Address=68 Command="46:Read EEPROM" CRC=248D
			RawFrame: 68 46 00 B0 10 24 8D
			RawData: 00 B0 10
		Line: Direction=Response Error="Timeout"
		Line: Direction=Request Address=68 Command="46:Read EEPROM" CRC=014D
			RawFrame: 68 46 00 C0 10 01 4D
			RawData: 00 C0 10
		Line: Direction=Response Error="Timeout"
		Line: Direction=Request Address=68 Command="46:Read EEPROM" CRC=0C8D
			RawFrame: 68 46 00 D0 10 0C 8D
			RawData: 00 D0 10
		Line: Direction=Response Error="Timeout"
		Line: Direction=Request Address=68 Command="46:Read EEPROM" CRC=188D
			RawFrame: 68 46 00 E0 10 18 8D
			RawData: 00 E0 10
		Line: Direction=Response Error="Timeout"
		Line: Direction=Request Address=68 Command="46:Read EEPROM" CRC=154D
			RawFrame: 68 46 00 F0 10 15 4D
			RawData: 00 F0 10
		Line: Direction=Response Error="Timeout"
		Line: Direction=Request Address=68 Command="04:Read Input Registers" CRC=D8F7
			RawFrame: 68 04 00 1E 00 07 D8 F7
			RawData: 00 1E 00 07
		Line: Direction=Response Error="Timeout"
		Line: Direction=Request Address=68 Command="04:Read Input Registers" CRC=C8F9
			RawFrame: 68 04 00 27 00 02 C8 F9
			RawData: 00 27 00 02
		Line: Direction=Response Error="Timeout"
		Line: Direction=Request Address=68 Command="04:Read Input Registers" CRC=08FA
			RawFrame: 68 04 00 2B 00 02 08 FA
			RawData: 00 2B 00 02
		Line: Direction=Response Error="Timeout"
		Line: Direction=Request Address=68 Command="04:Read Input Registers" CRC=093A
			RawFrame: 68 04 00 2F 00 01 09 3A
			RawData: 00 2F 00 01
		Line: Direction=Response Error="Timeout"
		Line: Direction=Request Address=68 Command="03:Read Holding Registers" CRC=6CF2
			RawFrame: 68 03 00 02 00 02 6C F2
			RawData: 00 02 00 02
		Line: Direction=Response Error="Timeout"

	Source: Address=SerialForTestingExceptions Speed=Unknown
		Line: Direction=Request Address=68 Command="03:Read Holding Registers" Error="Wrong CRC" CRC=D12D
			RawFrame: 68 83 03 0E 5E
			RawData: 03
		Line: Direction=Response Address=68 Command="03:Read Holding Registers" Exception="03:Illegal data value" Error="Wrong CRC" CRC=D12D
			RawFrame: 68 83 03 0E 5E
			RawData: 03

