SourceType: COM
	Source: Address=Serial0 Speed=Unknown
		Line: Direction=Request Address=FE Command="46:Read EEPROM" CRC=CA6C
			RawFrame: FE 46 00 3B 01 CA 6C
			RawData: 00 3B 01
		Line: Direction=Response Error="Timeout"
		Line: Direction=Request Address=FE Command="46:Read EEPROM" CRC=CA6C
			RawFrame: FE 46 00 3B 01 CA 6C
			RawData: 00 3B 01
		Line: Direction=Response Error="Timeout"

	Source: Address=Serial3 Speed=Unknown
		Line: Direction=Request Address=68 Command="46:Read EEPROM" CRC=AE20
			RawFrame: 68 46 01 6A 02 AE 20
			RawData: 01 6A 02
		Line: Direction=Response Error="Wrong data packet's length (length cannot be less than 4 bytes): 1 bytes "
			RawFrame: 68
		Line: Direction=Response Address=46 Command="02:Unknown" Error="Wrong CRC" CRC=3451
			RawFrame: 46 02 03 12 71 BC
			RawData: 03 12
		Line: Direction=Request Address=68 Command="04:Read Input Registers" CRC=F93A
			RawFrame: 68 04 00 10 00 10 F9 3A
			RawData: 00 10 00 10
		Line: Direction=Response Error="Wrong data packet's length (length cannot be less than 4 bytes): 1 bytes "
			RawFrame: 68
		Line: Direction=Response Address=04 Command="20:Unknown" Error="Wrong CRC" CRC=6AED
			RawFrame: 04 20 00 00 00 00 00 00 00 00 00 04 00 2E 00 2C 00 00 01 02 00 72 00 32 00 19 00 17 00 16 00
			RawData: 00 00 00 00 00 00 00 00 00 04 00 2E 00 2C 00 00 01 02 00 72 00 32 00 19 00 17 00
		Line: Direction=Response Error="Wrong data packet's length (length cannot be less than 4 bytes): 1 bytes "
			RawFrame: 00
		Line: Direction=Response Address=00 Command="15:Unknown" Error="Wrong CRC" CRC=C07F
			RawFrame: 00 15 13 99
			RawData:
		Line: Direction=Request Address=68 Command="04:Read Input Registers" CRC=78FD
			RawFrame: 68 04 00 30 00 02 78 FD
			RawData: 00 30 00 02
		Line: Direction=Response Error="Wrong data packet's length (length cannot be less than 4 bytes): 1 bytes "
			RawFrame: 68
		Line: Direction=Response Address=04 Command="04:Read Input Registers" Error="Wrong CRC" CRC=7749
			RawFrame: 04 04 0E 08 0F 10 85 94
			RawData: 0E 08 0F 10
		Line: Direction=Response Error="Timeout"
		Line: Direction=Request Address=68 Command="46:Read EEPROM" CRC=514D
			RawFrame: 68 46 00 00 10 51 4D
			RawData: 00 00 10
		Line: Direction=Response Address=68 Command="46:Read EEPROM" CRC=C541
			RawFrame: 68 46 10 00 01 0E 08 0F 10 87 32 00 32 00 19 FF FF FF FF C5 41
			RawData: 10 00 01 0E 08 0F 10 87 32 00 32 00 19 FF FF FF FF
		Line: Direction=Response Error="Timeout"
		Line: Direction=Response Error="Timeout"
		Line: Direction=Request Address=68 Command="46:Read EEPROM" CRC=5C8D
			RawFrame: 68 46 00 10 10 5C 8D
			RawData: 00 10 10
		Line: Direction=Response Address=68 Command="46:Read EEPROM" CRC=E0A5
			RawFrame: 68 46 10 FF FF FF FF FF FF FF FF FF FF FF FF FF FF FF FF E0 A5
			RawData: 10 FF FF FF FF FF FF FF FF FF FF FF FF FF FF FF FF
		Line: Direction=Response Error="Timeout"
		Line: Direction=Response Error="Timeout"
		Line: Direction=Request Address=68 Command="46:Read EEPROM" CRC=488D
			RawFrame: 68 46 00 20 10 48 8D
			RawData: 00 20 10
		Line: Direction=Response Address=68 Command="46:Read EEPROM" CRC=FFD6
			RawFrame: 68 46 10 FF A0 FF FF FF FF FF FF 0F 00 FF FF FF FF FF FF FF D6
			RawData: 10 FF A0 FF FF FF FF FF FF 0F 00 FF FF FF FF FF FF
		Line: Direction=Response Error="Timeout"
		Line: Direction=Response Error="Timeout"
		Line: Direction=Request Address=68 Command="46:Read EEPROM" CRC=454D
			RawFrame: 68 46 00 30 10 45 4D
			RawData: 00 30 10
		Line: Direction=Response Address=68 Command="46:Read EEPROM" CRC=A56C
			RawFrame: 68 46 10 FF FF FF FF FF FF FF FF FF FF FF 68 00 FF FF FF A5 6C
			RawData: 10 FF FF FF FF FF FF FF FF FF FF FF 68 00 FF FF FF
		Line: Direction=Response Error="Timeout"
		Line: Direction=Response Error="Timeout"
		Line: Direction=Request Address=68 Command="46:Read EEPROM" CRC=608D
			RawFrame: 68 46 00 40 10 60 8D
			RawData: 00 40 10
		Line: Direction=Response Address=68 Command="46:Read EEPROM" CRC=476D
			RawFrame: 68 46 10 FF FF 03 B3 03 08 08 F9 FF FF FF FF 00 0E FF FF 47 6D
			RawData: 10 FF FF 03 B3 03 08 08 F9 FF FF FF FF 00 0E FF FF
		Line: Direction=Response Error="Timeout"
		Line: Direction=Response Error="Timeout"
		Line: Direction=Request Address=68 Command="46:Read EEPROM" CRC=6D4D
			RawFrame: 68 46 00 50 10 6D 4D
			RawData: 00 50 10
		Line: Direction=Response Address=68 Command="46:Read EEPROM" CRC=A6DC
			RawFrame: 68 46 10 00 00 75 30 00 00 C3 50 00 0A 00 14 00 32 FF FF A6 DC
			RawData: 10 00 00 75 30 00 00 C3 50 00 0A 00 14 00 32 FF FF
		Line: Direction=Response Error="Timeout"
		Line: Direction=Response Error="Timeout"
		Line: Direction=Request Address=68 Command="46:Read EEPROM" CRC=794D
			RawFrame: 68 46 00 60 10 79 4D
			RawData: 00 60 10
		Line: Direction=Response Address=68 Command="46:Read EEPROM" CRC=9E1E
			RawFrame: 68 46 10 30 D4 FF FF FF FF FF FF FF FF FF FF FF FF FF FF 9E 1E
			RawData: 10 30 D4 FF FF FF FF FF FF FF FF FF FF FF FF FF FF
		Line: Direction=Response Error="Timeout"
		Line: Direction=Response Error="Timeout"
		Line: Direction=Request Address=68 Command="46:Read EEPROM" CRC=748D
			RawFrame: 68 46 00 70 10 74 8D
			RawData: 00 70 10
		Line: Direction=Response Address=68 Command="46:Read EEPROM" CRC=9E1E
			RawFrame: 68 46 10 30 D4 FF FF FF FF FF FF FF FF FF FF FF FF FF FF 9E 1E
			RawData: 10 30 D4 FF FF FF FF FF FF FF FF FF FF FF FF FF FF
		Line: Direction=Response Error="Timeout"
		Line: Direction=Response Error="Timeout"
		Line: Direction=Request Address=68 Command="46:Read EEPROM" CRC=308D
			RawFrame: 68 46 00 80 10 30 8D
			RawData: 00 80 10
		Line: Direction=Response Address=68 Command="46:Read EEPROM" CRC=9E1E
			RawFrame: 68 46 10 30 D4 FF FF FF FF FF FF FF FF FF FF FF FF FF FF 9E 1E
			RawData: 10 30 D4 FF FF FF FF FF FF FF FF FF FF FF FF FF FF
		Line: Direction=Response Error="Timeout"
		Line: Direction=Response Error="Timeout"
		Line: Direction=Request Address=68 Command="46:Read EEPROM" CRC=3D4D
			RawFrame: 68 46 00 90 10 3D 4D
			RawData: 00 90 10
		Line: Direction=Response Address=68 Command="46:Read EEPROM" CRC=9E1E
			RawFrame: 68 46 10 30 D4 FF FF FF FF FF FF FF FF FF FF FF FF FF FF 9E 1E
			RawData: 10 30 D4 FF FF FF FF FF FF FF FF FF FF FF FF FF FF
		Line: Direction=Response Error="Timeout"
		Line: Direction=Response Error="Timeout"
		Line: Direction=Request Address=68 Command="46:Read EEPROM" CRC=294D
			RawFrame: 68 46 00 A0 10 29 4D
			RawData: 00 A0 10
		Line: Direction=Response Address=68 Command="46:Read EEPROM" CRC=5E55
			RawFrame: 68 46 10 00 00 FF FF FF FF FF FF FF FF FF FF FF FF FF FF 5E 55
			RawData: 10 00 00 FF FF FF FF FF FF FF FF FF FF FF FF FF FF
		Line: Direction=Response Error="Timeout"
		Line: Direction=Response Error="Timeout"
		Line: Direction=Request Address=68 Command="46:Read EEPROM" CRC=248D
			RawFrame: 68 46 00 B0 10 24 8D
			RawData: 00 B0 10
		Line: Direction=Response Address=68 Command="46:Read EEPROM" CRC=5E55
			RawFrame: 68 46 10 00 00 FF FF FF FF FF FF FF FF FF FF FF FF FF FF 5E 55
			RawData: 10 00 00 FF FF FF FF FF FF FF FF FF FF FF FF FF FF
		Line: Direction=Response Error="Timeout"
		Line: Direction=Response Error="Timeout"
		Line: Direction=Request Address=68 Command="46:Read EEPROM" CRC=014D
			RawFrame: 68 46 00 C0 10 01 4D
			RawData: 00 C0 10
		Line: Direction=Response Address=68 Command="46:Read EEPROM" CRC=5E55
			RawFrame: 68 46 10 00 00 FF FF FF FF FF FF FF FF FF FF FF FF FF FF 5E 55
			RawData: 10 00 00 FF FF FF FF FF FF FF FF FF FF FF FF FF FF
		Line: Direction=Response Error="Timeout"
		Line: Direction=Response Error="Timeout"
		Line: Direction=Request Address=68 Command="46:Read EEPROM" CRC=0C8D
			RawFrame: 68 46 00 D0 10 0C 8D
			RawData: 00 D0 10
		Line: Direction=Response Address=68 Command="46:Read EEPROM" CRC=5E55
			RawFrame: 68 46 10 00 00 FF FF FF FF FF FF FF FF FF FF FF FF FF FF 5E 55
			RawData: 10 00 00 FF FF FF FF FF FF FF FF FF FF FF FF FF FF
		Line: Direction=Response Error="Timeout"
		Line: Direction=Response Error="Timeout"
		Line: Direction=Request Address=68 Command="46:Read EEPROM" CRC=188D
			RawFrame: 68 46 00 E0 10 18 8D
			RawData: 00 E0 10
		Line: Direction=Response Address=68 Command="46:Read EEPROM" CRC=F554
			RawFrame: 68 46 10 00 00 00 00 FF FF FF FF FF FF FF FF FF FF FF FF F5 54
			RawData: 10 00 00 00 00 FF FF FF FF FF FF FF FF FF FF FF FF
		Line: Direction=Response Error="Timeout"
		Line: Direction=Response Error="Timeout"
		Line: Direction=Request Address=68 Command="46:Read EEPROM" CRC=154D
			RawFrame: 68 46 00 F0 10 15 4D
			RawData: 00 F0 10
		Line: Direction=Response Address=68 Command="46:Read EEPROM" CRC=E0A5
			RawFrame: 68 46 10 FF FF FF FF FF FF FF FF FF FF FF FF FF FF FF FF E0 A5
			RawData: 10 FF FF FF FF FF FF FF FF FF FF FF FF FF FF FF FF
		Line: Direction=Response Error="Timeout"
		Line: Direction=Response Error="Timeout"
		Line: Direction=Request Address=68 Command="04:Read Input Registers" CRC=D8F7
			RawFrame: 68 04 00 1E 00 07 D8 F7
			RawData: 00 1E 00 07
		Line: Direction=Response Address=68 Command="04:Read Input Registers" CRC=3C07
			RawFrame: 68 04 0E 00 00 00 1D 00 00 00 00 00 00 00 00 00 00 3C 07
			RawData: 0E 00 00 00 1D 00 00 00 00 00 00 00 00 00 00
		Line: Direction=Response Error="Timeout"
		Line: Direction=Response Error="Timeout"
		Line: Direction=Request Address=68 Command="04:Read Input Registers" CRC=C8F9
			RawFrame: 68 04 00 27 00 02 C8 F9
			RawData: 00 27 00 02
		Line: Direction=Response Address=68 Command="04:Read Input Registers" CRC=8349
			RawFrame: 68 04 04 00 00 00 1A 83 49
			RawData: 04 00 00 00 1A
		Line: Direction=Response Error="Timeout"
		Line: Direction=Response Error="Timeout"
		Line: Direction=Request Address=68 Command="04:Read Input Registers" CRC=08FA
			RawFrame: 68 04 00 2B 00 02 08 FA
			RawData: 00 2B 00 02
		Line: Direction=Response Address=68 Command="04:Read Input Registers" CRC=B289
			RawFrame: 68 04 04 00 03 00 1B B2 89
			RawData: 04 00 03 00 1B
		Line: Direction=Response Error="Timeout"
		Line: Direction=Response Error="Timeout"
		Line: Direction=Request Address=68 Command="04:Read Input Registers" CRC=093A
			RawFrame: 68 04 00 2F 00 01 09 3A
			RawData: 00 2F 00 01
		Line: Direction=Response Address=68 Command="04:Read Input Registers" CRC=64F8
			RawFrame: 68 04 02 00 02 64 F8
			RawData: 02 00 02
		Line: Direction=Response Error="Timeout"
		Line: Direction=Response Error="Timeout"
		Line: Direction=Request Address=68 Command="03:Read Holding Registers" CRC=6CF2
			RawFrame: 68 03 00 02 00 02 6C F2
			RawData: 00 02 00 02
		Line: Direction=Response Address=68 Command="03:Read Holding Registers" CRC=B766
			RawFrame: 68 03 04 54 09 4F C3 B7 66
			RawData: 04 54 09 4F C3
		Line: Direction=Response Error="Timeout"

	Source: Address=SerialForTestingExceptions Speed=Unknown
		Line: Direction=Response Address=68 Command="03:Read Holding Registers" Exception="03:Illegal data value" Error="Wrong CRC" CRC=D12D
			RawFrame: 68 83 03 0E 5E
			RawData: 03

